
T4C98 000:070 SEGGER J-Link V6.12a Log File (0001ms, 0032ms total)
T4C98 000:070 DLL Compiled: Dec  2 2016 16:44:26 (0001ms, 0032ms total)
T4C98 000:070 Logging started @ 2020-11-26 14:04 (0001ms, 0032ms total)
T4C98 000:071 JLINK_SetWarnOutHandler(...) (0000ms, 0032ms total)
T4C98 000:071 JLINK_OpenEx(...)
Firmware: J-Link V9 compiled Oct 25 2018 11:46:07
Hardware: V9.20
Feature(s): RDI, GDB, FlashDL, FlashBP, JFlashWEBSRV Webserver running on local port 19080 (0017ms, 0049ms total)
T4C98 000:071   returns O.K. (0017ms, 0049ms total)
T4C98 000:088 JLINK_SetErrorOutHandler(...) (0000ms, 0049ms total)
T4C98 000:088 JLINK_ExecCommand("ProjectFile = "D:\github\automatic\code\MDK-ARM\JLinkSettings.ini"", ...). D:\Keil_v5\ARM\Segger\JLinkDevices.xml evaluated successfully.D:\Keil_v5\ARM\SEGGER\JLinkDevices.xml evaluated successfully.Device "CORTEX-M0" selected.  returns 0x00 (0213ms, 0262ms total)
T4C98 000:302 JLINK_ExecCommand("Device = FM33LC01X", ...). Device "CORTEX-M0" selected.  returns 0x00 (0002ms, 0264ms total)
T4C98 000:304 JLINK_ExecCommand("DisableConnectionTimeout", ...).   returns 0x01 (0000ms, 0264ms total)
T4C98 000:304 JLINK_GetHardwareVersion()  returns 0x16760 (0000ms, 0264ms total)
T4C98 000:304 JLINK_GetDLLVersion()  returns 61201 (0000ms, 0264ms total)
T4C98 000:304 JLINK_GetFirmwareString(...) (0000ms, 0264ms total)
T4C98 000:308 JLINK_GetDLLVersion()  returns 61201 (0000ms, 0264ms total)
T4C98 000:308 JLINK_GetCompileDateTime() (0000ms, 0264ms total)
T4C98 000:312 JLINK_GetFirmwareString(...) (0000ms, 0264ms total)
T4C98 000:332 JLINK_GetHardwareVersion()  returns 0x16760 (0000ms, 0264ms total)
T4C98 000:343 JLINK_TIF_Select(JLINKARM_TIF_SWD)  returns 0x00 (0003ms, 0267ms total)
T4C98 000:346 JLINK_SetSpeed(2000) (0000ms, 0267ms total)
T4C98 000:346 JLINK_GetId() >0x108 TIF>Found SWD-DP with ID 0x0BB11477 >0x0D TIF> >0x28 TIF> >0x0D TIF> >0x28 TIF> >0x0D TIF> >0x28 TIF> >0x0D TIF> >0x28 TIF> >0x0D TIF> >0x21 TIF> >0x0D TIF> >0x28 TIF> >0x0D TIF> >0x28 TIF> >0x0D TIF> >0x21 TIF> >0x0D TIF> >0x21 TIF> >0x0D TIF> >0x21 TIF>AP-IDR: 0x04770021, Type: AHB-AP >0x0D TIF> >0x28 TIF> >0x0D TIF> >0x28 TIF> >0x0D TIF> >0x28 TIF> >0x0D TIF> >0x21 TIF> >0x0D TIF> >0x21 TIF> >0x0D TIF> >0x28 TIF> >0x0D TIF> >0x21 TIF> >0x0D TIF> >0x21 TIF>
Unknown core, assuming Cortex-M0Found Cortex-M0 r0p0, Little endian. -- CPU_ReadMem(4 bytes @ 0xE000EDF0) -- CPU_WriteMem(4 bytes @ 0xE000EDF0) -- CPU_ReadMem(4 bytes @ 0xE0002000)FPUnit: 4 code (BP) slots and 0 literal slots -- CPU_ReadMem(4 bytes @ 0xE000EDFC) -- CPU_WriteMem(4 bytes @ 0xE000EDFC) -- CPU_ReadMem(4 bytes @ 0xE0001000) -- CPU_WriteMem(4 bytes @ 0xE0001000)CoreSight components:ROMTbl 0 @ E00FF000 -- CPU_ReadMem(16 bytes @ 0xE00FF000) -- CPU_ReadMem(16 bytes @ 0xE000EFF0)
 -- CPU_ReadMem(16 bytes @ 0xE000EFE0)ROMTbl 0 [0]: FFF0F000, CID: B105E00D, PID: 000BB00D SCS -- CPU_ReadMem(16 bytes @ 0xE0001FF0) -- CPU_ReadMem(16 bytes @ 0xE0001FE0)ROMTbl 0 [1]: FFF02000, CID: B105E00D, PID: 000BB00A DWT -- CPU_ReadMem(16 bytes @ 0xE0002FF0) -- CPU_ReadMem(16 bytes @ 0xE0002FE0)ROMTbl 0 [2]: FFF03000, CID: B105E00D, PID: 000BB00B FPB >0x0D TIF> >0x21 TIF>  returns 0x0BB11477 (0062ms, 0329ms total)
T4C98 000:409 JLINK_GetDeviceFamily()  returns 6 (0000ms, 0329ms total)
T4C98 000:411 JLINK_ReadMem (0xE00FFFF0, 0x0010 Bytes, ...) -- CPU is running -- CPU_ReadMem(16 bytes @ 0xE00FFFF0) - Data: 0D 00 00 00 10 00 00 00 05 00 00 00 B1 00 00 00  returns 0x00 (0002ms, 0331ms total)
T4C98 000:413 JLINK_ReadMem (0xE00FFFD0, 0x0020 Bytes, ...) -- CPU is running -- CPU_ReadMem(32 bytes @ 0xE00FFFD0) - Data: 04 00 00 00 00 00 00 00 00 00 00 00 00 00 00 00 ...  returns 0x00 (0001ms, 0332ms total)
T4C98 000:414 JLINK_ReadMem (0xE00FF000, 0x0018 Bytes, ...) -- CPU is running -- CPU_ReadMem(24 bytes @ 0xE00FF000) - Data: 03 F0 F0 FF 03 20 F0 FF 03 30 F0 FF 00 00 00 00 ...  returns 0x00 (0001ms, 0333ms total)
T4C98 000:415 JLINK_ReadMemU32(0xE000ED00, 0x0001 Items, ...) -- CPU is running -- CPU_ReadMem(4 bytes @ 0xE000ED00) - Data: 00 C3 0C 41  returns 0x01 (0001ms, 0334ms total)
T4C98 000:417 JLINK_SetResetType(JLINKARM_CM3_RESET_TYPE_NORMAL)  returns JLINKARM_CM3_RESET_TYPE_NORMAL (0000ms, 0335ms total)
T4C98 000:417 JLINK_Reset() -- CPU is running -- CPU_WriteMem(4 bytes @ 0xE000EDF0) -- CPU is running -- CPU_WriteMem(4 bytes @ 0xE000EDFC) >0x35 TIF> -- CPU is running -- CPU_WriteMem(4 bytes @ 0xE000ED0C) -- CPU is running -- CPU_ReadMem(4 bytes @ 0xE000EDF0) -- CPU is running -- CPU_ReadMem(4 bytes @ 0xE000EDF0) -- CPU is running -- CPU_WriteMem(4 bytes @ 0xE000EDF0) -- CPU is running -- CPU_WriteMem(4 bytes @ 0xE000EDFC) -- CPU is running -- CPU_ReadMem(4 bytes @ 0xE000EDF0)
 -- CPU_WriteMem(4 bytes @ 0xE0002000) -- CPU_ReadMem(4 bytes @ 0xE000EDFC) -- CPU_ReadMem(4 bytes @ 0xE0001000) -- CPU_WriteMem(4 bytes @ 0xE0001000) (0025ms, 0360ms total)
T4C98 000:442 JLINK_Halt()  returns 0x00 (0000ms, 0360ms total)
T4C98 000:442 JLINK_IsHalted()  returns TRUE (0000ms, 0360ms total)
T4C98 000:442 JLINK_ReadMemU32(0xE000EDF0, 0x0001 Items, ...) -- CPU_ReadMem(4 bytes @ 0xE000EDF0) - Data: 03 00 03 00  returns 0x01 (0001ms, 0361ms total)
T4C98 000:443 JLINK_WriteU32(0xE000EDF0, 0xA05F0003) -- CPU_WriteMem(4 bytes @ 0xE000EDF0)  returns 0x00 (0001ms, 0362ms total)
T4C98 000:444 JLINK_WriteU32(0xE000EDFC, 0x01000000) -- CPU_WriteMem(4 bytes @ 0xE000EDFC)  returns 0x00 (0001ms, 0363ms total)
T4C98 000:455 JLINK_GetHWStatus(...)  returns 0x00 (0000ms, 0363ms total)
T4C98 000:465 JLINK_GetNumBPUnits(Type = 0xFFFFFF00)  returns 0x04 (0000ms, 0363ms total)
T4C98 000:465 JLINK_GetNumBPUnits(Type = 0xF0)  returns 0x2000 (0000ms, 0363ms total)
T4C98 000:465 JLINK_GetNumWPUnits()  returns 0x01 (0000ms, 0363ms total)
T4C98 000:471 JLINK_GetSpeed()  returns 0x7D0 (0000ms, 0363ms total)
T4C98 000:476 JLINK_ReadMemU32(0xE000E004, 0x0001 Items, ...) -- CPU_ReadMem(4 bytes @ 0xE000E004) - Data: 00 00 00 00  returns 0x01 (0001ms, 0364ms total)
T4C98 000:477 JLINK_Halt()  returns 0x00 (0000ms, 0364ms total)
T4C98 000:477 JLINK_IsHalted()  returns TRUE (0000ms, 0364ms total)
T4C98 000:484 JLINK_WriteMem(0x20000000, 0x0214 Bytes, ...) - Data: 00 BE 0A E0 0D 78 2D 06 68 40 08 24 40 00 00 D3 ... -- CPU_WriteMem(532 bytes @ 0x20000000)  returns 0x214 (0005ms, 0369ms total)
T4C98 000:489 JLINK_WriteReg(R0, 0x00000000)  returns 0x00 (0000ms, 0369ms total)
T4C98 000:489 JLINK_WriteReg(R1, 0x00B71B00)  returns 0x00 (0000ms, 0369ms total)
T4C98 000:489 JLINK_WriteReg(R2, 0x00000001)  returns 0x00 (0000ms, 0369ms total)
T4C98 000:489 JLINK_WriteReg(R3, 0x00000000)  returns 0x00 (0000ms, 0369ms total)
T4C98 000:489 JLINK_WriteReg(R4, 0x00000000)  returns 0x00 (0000ms, 0369ms total)
T4C98 000:489 JLINK_WriteReg(R5, 0x00000000)  returns 0x00 (0000ms, 0369ms total)
T4C98 000:489 JLINK_WriteReg(R6, 0x00000000)  returns 0x00 (0000ms, 0369ms total)
T4C98 000:489 JLINK_WriteReg(R7, 0x00000000)  returns 0x00 (0000ms, 0369ms total)
T4C98 000:489 JLINK_WriteReg(R8, 0x00000000)  returns 0x00 (0000ms, 0369ms total)
T4C98 000:489 JLINK_WriteReg(R9, 0x20000210)  returns 0x00 (0000ms, 0369ms total)
T4C98 000:489 JLINK_WriteReg(R10, 0x00000000)  returns 0x00 (0000ms, 0369ms total)
T4C98 000:489 JLINK_WriteReg(R11, 0x00000000)  returns 0x00 (0000ms, 0369ms total)
T4C98 000:489 JLINK_WriteReg(R12, 0x00000000)  returns 0x00 (0000ms, 0369ms total)
T4C98 000:489 JLINK_WriteReg(R13 (SP), 0x20001000)  returns 0x00 (0000ms, 0369ms total)
T4C98 000:489 JLINK_WriteReg(R14, 0x20000001)  returns 0x00 (0000ms, 0369ms total)
T4C98 000:489 JLINK_WriteReg(R15 (PC), 0x2000004E)  returns 0x00 (0000ms, 0369ms total)
T4C98 000:489 JLINK_WriteReg(XPSR, 0x01000000)  returns 0x00 (0000ms, 0369ms total)
T4C98 000:489 JLINK_WriteReg(MSP, 0x20001000)  returns 0x00 (0000ms, 0369ms total)
T4C98 000:489 JLINK_WriteReg(PSP, 0x20001000)  returns 0x00 (0000ms, 0369ms total)
T4C98 000:489 JLINK_WriteReg(CFBP, 0x00000000)  returns 0x00 (0000ms, 0369ms total)
T4C98 000:489 JLINK_SetBPEx(Addr = 0x20000000, Type = 0xFFFFFFF2) -- CPU_ReadMem(4 bytes @ 0x20000000) -- CPU_WriteMem(4 bytes @ 0x20000000) -- CPU_ReadMem(4 bytes @ 0x20000000) -- CPU_WriteMem(4 bytes @ 0x20000000) -- CPU_ReadMem(2 bytes @ 0x20000000)  returns 0x00000001 (0005ms, 0374ms total)
T4C98 000:494 JLINK_Go() -- CPU_WriteMem(2 bytes @ 0x20000000) -- CPU_ReadMem(4 bytes @ 0xE0001000) -- CPU_WriteMem(4 bytes @ 0xE0001000) -- CPU_WriteMem(4 bytes @ 0xE0002008) -- CPU_WriteMem(4 bytes @ 0xE000200C) -- CPU_WriteMem(4 bytes @ 0xE0002010) -- CPU_WriteMem(4 bytes @ 0xE0002014) -- CPU_WriteMem(4 bytes @ 0xE0001004) (0007ms, 0381ms total)
T4C98 000:501 JLINK_IsHalted() -- CPU_ReadMem(2 bytes @ 0x20000000)  returns TRUE (0005ms, 0386ms total)
T4C98 000:506 JLINK_ReadReg(R15 (PC))  returns 0x20000000 (0000ms, 0381ms total)
T4C98 000:506 JLINK_ClrBPEx(BPHandle = 0x00000001)  returns 0x00 (0000ms, 0381ms total)
T4C98 000:506 JLINK_ReadReg(R0)  returns 0x00000000 (0000ms, 0381ms total)
T4C98 000:508 JLINK_WriteReg(R0, 0x00004000)  returns 0x00 (0000ms, 0381ms total)
T4C98 000:508 JLINK_WriteReg(R1, 0x00000200)  returns 0x00 (0000ms, 0381ms total)
T4C98 000:508 JLINK_WriteReg(R2, 0x000000FF)  returns 0x00 (0000ms, 0381ms total)
T4C98 000:508 JLINK_WriteReg(R3, 0x00000000)  returns 0x00 (0000ms, 0381ms total)
T4C98 000:508 JLINK_WriteReg(R4, 0x00000000)  returns 0x00 (0000ms, 0381ms total)
T4C98 000:508 JLINK_WriteReg(R5, 0x00000000)  returns 0x00 (0000ms, 0381ms total)
T4C98 000:508 JLINK_WriteReg(R6, 0x00000000)  returns 0x00 (0000ms, 0381ms total)
T4C98 000:508 JLINK_WriteReg(R7, 0x00000000)  returns 0x00 (0000ms, 0381ms total)
T4C98 000:508 JLINK_WriteReg(R8, 0x00000000)  returns 0x00 (0000ms, 0381ms total)
T4C98 000:508 JLINK_WriteReg(R9, 0x20000210)  returns 0x00 (0000ms, 0381ms total)
T4C98 000:508 JLINK_WriteReg(R10, 0x00000000)  returns 0x00 (0000ms, 0381ms total)
T4C98 000:508 JLINK_WriteReg(R11, 0x00000000)  returns 0x00 (0000ms, 0381ms total)
T4C98 000:508 JLINK_WriteReg(R12, 0x00000000)  returns 0x00 (0000ms, 0381ms total)
T4C98 000:508 JLINK_WriteReg(R13 (SP), 0x20001000)  returns 0x00 (0000ms, 0381ms total)
T4C98 000:508 JLINK_WriteReg(R14, 0x20000001)  returns 0x00 (0000ms, 0381ms total)
T4C98 000:508 JLINK_WriteReg(R15 (PC), 0x20000020)  returns 0x00 (0000ms, 0381ms total)
T4C98 000:508 JLINK_WriteReg(XPSR, 0x01000000)  returns 0x00 (0000ms, 0381ms total)
T4C98 000:508 JLINK_WriteReg(MSP, 0x20001000)  returns 0x00 (0000ms, 0381ms total)
T4C98 000:508 JLINK_WriteReg(PSP, 0x20001000)  returns 0x00 (0000ms, 0381ms total)
T4C98 000:508 JLINK_WriteReg(CFBP, 0x00000000)  returns 0x00 (0000ms, 0381ms total)
T4C98 000:508 JLINK_SetBPEx(Addr = 0x20000000, Type = 0xFFFFFFF2)  returns 0x00000002 (0000ms, 0381ms total)
T4C98 000:508 JLINK_Go() -- CPU_ReadMem(4 bytes @ 0xE0001000) -- CPU_WriteMem(4 bytes @ 0xE0001000) (0003ms, 0384ms total)
T4C98 000:511 JLINK_IsHalted() -- CPU_ReadMem(2 bytes @ 0x20000000)  returns TRUE (0005ms, 0389ms total)
T4C98 000:516 JLINK_ReadReg(R15 (PC))  returns 0x20000000 (0000ms, 0384ms total)
T4C98 000:516 JLINK_ClrBPEx(BPHandle = 0x00000002)  returns 0x00 (0000ms, 0384ms total)
T4C98 000:516 JLINK_ReadReg(R0)  returns 0x00000001 (0000ms, 0384ms total)
T4C98 000:516 JLINK_WriteReg(R0, 0x00004000)  returns 0x00 (0000ms, 0384ms total)
T4C98 000:516 JLINK_WriteReg(R1, 0x00000200)  returns 0x00 (0000ms, 0384ms total)
T4C98 000:516 JLINK_WriteReg(R2, 0x000000FF)  returns 0x00 (0000ms, 0384ms total)
T4C98 000:516 JLINK_WriteReg(R3, 0x00000000)  returns 0x00 (0000ms, 0384ms total)
T4C98 000:516 JLINK_WriteReg(R4, 0x00000000)  returns 0x00 (0000ms, 0384ms total)
T4C98 000:516 JLINK_WriteReg(R5, 0x00000000)  returns 0x00 (0000ms, 0384ms total)
T4C98 000:516 JLINK_WriteReg(R6, 0x00000000)  returns 0x00 (0000ms, 0384ms total)
T4C98 000:516 JLINK_WriteReg(R7, 0x00000000)  returns 0x00 (0000ms, 0384ms total)
T4C98 000:516 JLINK_WriteReg(R8, 0x00000000)  returns 0x00 (0000ms, 0384ms total)
T4C98 000:516 JLINK_WriteReg(R9, 0x20000210)  returns 0x00 (0000ms, 0384ms total)
T4C98 000:516 JLINK_WriteReg(R10, 0x00000000)  returns 0x00 (0000ms, 0384ms total)
T4C98 000:516 JLINK_WriteReg(R11, 0x00000000)  returns 0x00 (0000ms, 0384ms total)
T4C98 000:516 JLINK_WriteReg(R12, 0x00000000)  returns 0x00 (0000ms, 0384ms total)
T4C98 000:516 JLINK_WriteReg(R13 (SP), 0x20001000)  returns 0x00 (0000ms, 0384ms total)
T4C98 000:516 JLINK_WriteReg(R14, 0x20000001)  returns 0x00 (0000ms, 0384ms total)
T4C98 000:516 JLINK_WriteReg(R15 (PC), 0x20000108)  returns 0x00 (0000ms, 0384ms total)
T4C98 000:516 JLINK_WriteReg(XPSR, 0x01000000)  returns 0x00 (0000ms, 0384ms total)
T4C98 000:516 JLINK_WriteReg(MSP, 0x20001000)  returns 0x00 (0000ms, 0384ms total)
T4C98 000:516 JLINK_WriteReg(PSP, 0x20001000)  returns 0x00 (0000ms, 0384ms total)
T4C98 000:516 JLINK_WriteReg(CFBP, 0x00000000)  returns 0x00 (0000ms, 0384ms total)
T4C98 000:516 JLINK_SetBPEx(Addr = 0x20000000, Type = 0xFFFFFFF2)  returns 0x00000003 (0000ms, 0384ms total)
T4C98 000:516 JLINK_Go() -- CPU_ReadMem(4 bytes @ 0xE0001000) -- CPU_WriteMem(4 bytes @ 0xE0001000) (0005ms, 0389ms total)
T4C98 000:521 JLINK_IsHalted()  returns FALSE (0001ms, 0390ms total)
T4C98 000:593 JLINK_IsHalted() -- CPU_ReadMem(2 bytes @ 0x20000000)  returns TRUE (0004ms, 0393ms total)
T4C98 000:597 JLINK_ReadReg(R15 (PC))  returns 0x20000000 (0000ms, 0389ms total)
T4C98 000:597 JLINK_ClrBPEx(BPHandle = 0x00000003)  returns 0x00 (0000ms, 0389ms total)
T4C98 000:597 JLINK_ReadReg(R0)  returns 0x00000000 (0000ms, 0389ms total)
T4C98 000:598 JLINK_WriteReg(R0, 0x00004200)  returns 0x00 (0000ms, 0389ms total)
T4C98 000:598 JLINK_WriteReg(R1, 0x00000200)  returns 0x00 (0000ms, 0389ms total)
T4C98 000:598 JLINK_WriteReg(R2, 0x000000FF)  returns 0x00 (0000ms, 0389ms total)
T4C98 000:598 JLINK_WriteReg(R3, 0x00000000)  returns 0x00 (0000ms, 0389ms total)
T4C98 000:598 JLINK_WriteReg(R4, 0x00000000)  returns 0x00 (0000ms, 0389ms total)
T4C98 000:598 JLINK_WriteReg(R5, 0x00000000)  returns 0x00 (0000ms, 0389ms total)
T4C98 000:598 JLINK_WriteReg(R6, 0x00000000)  returns 0x00 (0000ms, 0389ms total)
T4C98 000:598 JLINK_WriteReg(R7, 0x00000000)  returns 0x00 (0000ms, 0389ms total)
T4C98 000:598 JLINK_WriteReg(R8, 0x00000000)  returns 0x00 (0000ms, 0389ms total)
T4C98 000:598 JLINK_WriteReg(R9, 0x20000210)  returns 0x00 (0000ms, 0389ms total)
T4C98 000:598 JLINK_WriteReg(R10, 0x00000000)  returns 0x00 (0000ms, 0389ms total)
T4C98 000:598 JLINK_WriteReg(R11, 0x00000000)  returns 0x00 (0000ms, 0389ms total)
T4C98 000:598 JLINK_WriteReg(R12, 0x00000000)  returns 0x00 (0000ms, 0389ms total)
T4C98 000:598 JLINK_WriteReg(R13 (SP), 0x20001000)  returns 0x00 (0000ms, 0389ms total)
T4C98 000:598 JLINK_WriteReg(R14, 0x20000001)  returns 0x00 (0000ms, 0389ms total)
T4C98 000:598 JLINK_WriteReg(R15 (PC), 0x20000020)  returns 0x00 (0000ms, 0389ms total)
T4C98 000:598 JLINK_WriteReg(XPSR, 0x01000000)  returns 0x00 (0000ms, 0389ms total)
T4C98 000:598 JLINK_WriteReg(MSP, 0x20001000)  returns 0x00 (0000ms, 0389ms total)
T4C98 000:598 JLINK_WriteReg(PSP, 0x20001000)  returns 0x00 (0000ms, 0389ms total)
T4C98 000:598 JLINK_WriteReg(CFBP, 0x00000000)  returns 0x00 (0000ms, 0389ms total)
T4C98 000:598 JLINK_SetBPEx(Addr = 0x20000000, Type = 0xFFFFFFF2)  returns 0x00000004 (0000ms, 0389ms total)
T4C98 000:598 JLINK_Go() -- CPU_ReadMem(4 bytes @ 0xE0001000) -- CPU_WriteMem(4 bytes @ 0xE0001000) (0003ms, 0392ms total)
T4C98 000:601 JLINK_IsHalted() -- CPU_ReadMem(2 bytes @ 0x20000000)  returns TRUE (0005ms, 0397ms total)
T4C98 000:606 JLINK_ReadReg(R15 (PC))  returns 0x20000000 (0000ms, 0392ms total)
T4C98 000:606 JLINK_ClrBPEx(BPHandle = 0x00000004)  returns 0x00 (0000ms, 0392ms total)
T4C98 000:606 JLINK_ReadReg(R0)  returns 0x00000001 (0000ms, 0392ms total)
T4C98 000:606 JLINK_WriteReg(R0, 0x00004200)  returns 0x00 (0000ms, 0392ms total)
T4C98 000:606 JLINK_WriteReg(R1, 0x00000200)  returns 0x00 (0000ms, 0392ms total)
T4C98 000:606 JLINK_WriteReg(R2, 0x000000FF)  returns 0x00 (0000ms, 0392ms total)
T4C98 000:606 JLINK_WriteReg(R3, 0x00000000)  returns 0x00 (0000ms, 0392ms total)
T4C98 000:606 JLINK_WriteReg(R4, 0x00000000)  returns 0x00 (0000ms, 0392ms total)
T4C98 000:606 JLINK_WriteReg(R5, 0x00000000)  returns 0x00 (0000ms, 0392ms total)
T4C98 000:606 JLINK_WriteReg(R6, 0x00000000)  returns 0x00 (0000ms, 0392ms total)
T4C98 000:606 JLINK_WriteReg(R7, 0x00000000)  returns 0x00 (0000ms, 0392ms total)
T4C98 000:606 JLINK_WriteReg(R8, 0x00000000)  returns 0x00 (0000ms, 0392ms total)
T4C98 000:606 JLINK_WriteReg(R9, 0x20000210)  returns 0x00 (0000ms, 0392ms total)
T4C98 000:606 JLINK_WriteReg(R10, 0x00000000)  returns 0x00 (0000ms, 0392ms total)
T4C98 000:606 JLINK_WriteReg(R11, 0x00000000)  returns 0x00 (0000ms, 0392ms total)
T4C98 000:606 JLINK_WriteReg(R12, 0x00000000)  returns 0x00 (0000ms, 0392ms total)
T4C98 000:606 JLINK_WriteReg(R13 (SP), 0x20001000)  returns 0x00 (0000ms, 0392ms total)
T4C98 000:606 JLINK_WriteReg(R14, 0x20000001)  returns 0x00 (0000ms, 0392ms total)
T4C98 000:606 JLINK_WriteReg(R15 (PC), 0x20000108)  returns 0x00 (0000ms, 0392ms total)
T4C98 000:606 JLINK_WriteReg(XPSR, 0x01000000)  returns 0x00 (0000ms, 0392ms total)
T4C98 000:606 JLINK_WriteReg(MSP, 0x20001000)  returns 0x00 (0000ms, 0392ms total)
T4C98 000:606 JLINK_WriteReg(PSP, 0x20001000)  returns 0x00 (0000ms, 0392ms total)
T4C98 000:606 JLINK_WriteReg(CFBP, 0x00000000)  returns 0x00 (0000ms, 0392ms total)
T4C98 000:606 JLINK_SetBPEx(Addr = 0x20000000, Type = 0xFFFFFFF2)  returns 0x00000005 (0000ms, 0392ms total)
T4C98 000:606 JLINK_Go() -- CPU_ReadMem(4 bytes @ 0xE0001000) -- CPU_WriteMem(4 bytes @ 0xE0001000) (0003ms, 0395ms total)
T4C98 000:609 JLINK_IsHalted()  returns FALSE (0001ms, 0396ms total)
T4C98 000:614 JLINK_IsHalted() -- CPU_ReadMem(2 bytes @ 0x20000000)  returns TRUE (0004ms, 0399ms total)
T4C98 000:618 JLINK_ReadReg(R15 (PC))  returns 0x20000000 (0000ms, 0395ms total)
T4C98 000:618 JLINK_ClrBPEx(BPHandle = 0x00000005)  returns 0x00 (0000ms, 0395ms total)
T4C98 000:618 JLINK_ReadReg(R0)  returns 0x00000000 (0000ms, 0395ms total)
T4C98 000:618 JLINK_WriteReg(R0, 0x00004400)  returns 0x00 (0000ms, 0395ms total)
T4C98 000:618 JLINK_WriteReg(R1, 0x00000200)  returns 0x00 (0000ms, 0395ms total)
T4C98 000:618 JLINK_WriteReg(R2, 0x000000FF)  returns 0x00 (0000ms, 0395ms total)
T4C98 000:618 JLINK_WriteReg(R3, 0x00000000)  returns 0x00 (0001ms, 0396ms total)
T4C98 000:619 JLINK_WriteReg(R4, 0x00000000)  returns 0x00 (0000ms, 0396ms total)
T4C98 000:619 JLINK_WriteReg(R5, 0x00000000)  returns 0x00 (0000ms, 0396ms total)
T4C98 000:619 JLINK_WriteReg(R6, 0x00000000)  returns 0x00 (0000ms, 0396ms total)
T4C98 000:619 JLINK_WriteReg(R7, 0x00000000)  returns 0x00 (0000ms, 0396ms total)
T4C98 000:619 JLINK_WriteReg(R8, 0x00000000)  returns 0x00 (0000ms, 0396ms total)
T4C98 000:619 JLINK_WriteReg(R9, 0x20000210)  returns 0x00 (0000ms, 0396ms total)
T4C98 000:619 JLINK_WriteReg(R10, 0x00000000)  returns 0x00 (0000ms, 0396ms total)
T4C98 000:619 JLINK_WriteReg(R11, 0x00000000)  returns 0x00 (0000ms, 0396ms total)
T4C98 000:619 JLINK_WriteReg(R12, 0x00000000)  returns 0x00 (0000ms, 0396ms total)
T4C98 000:619 JLINK_WriteReg(R13 (SP), 0x20001000)  returns 0x00 (0000ms, 0396ms total)
T4C98 000:619 JLINK_WriteReg(R14, 0x20000001)  returns 0x00 (0000ms, 0396ms total)
T4C98 000:619 JLINK_WriteReg(R15 (PC), 0x20000020)  returns 0x00 (0000ms, 0396ms total)
T4C98 000:619 JLINK_WriteReg(XPSR, 0x01000000)  returns 0x00 (0000ms, 0396ms total)
T4C98 000:619 JLINK_WriteReg(MSP, 0x20001000)  returns 0x00 (0000ms, 0396ms total)
T4C98 000:619 JLINK_WriteReg(PSP, 0x20001000)  returns 0x00 (0000ms, 0396ms total)
T4C98 000:619 JLINK_WriteReg(CFBP, 0x00000000)  returns 0x00 (0000ms, 0396ms total)
T4C98 000:619 JLINK_SetBPEx(Addr = 0x20000000, Type = 0xFFFFFFF2)  returns 0x00000006 (0000ms, 0396ms total)
T4C98 000:619 JLINK_Go() -- CPU_ReadMem(4 bytes @ 0xE0001000) -- CPU_WriteMem(4 bytes @ 0xE0001000) (0003ms, 0399ms total)
T4C98 000:622 JLINK_IsHalted() -- CPU_ReadMem(2 bytes @ 0x20000000)  returns TRUE (0005ms, 0404ms total)
T4C98 000:627 JLINK_ReadReg(R15 (PC))  returns 0x20000000 (0000ms, 0399ms total)
T4C98 000:627 JLINK_ClrBPEx(BPHandle = 0x00000006)  returns 0x00 (0000ms, 0399ms total)
T4C98 000:627 JLINK_ReadReg(R0)  returns 0x00000001 (0000ms, 0399ms total)
T4C98 000:627 JLINK_WriteReg(R0, 0x00004400)  returns 0x00 (0000ms, 0399ms total)
T4C98 000:627 JLINK_WriteReg(R1, 0x00000200)  returns 0x00 (0000ms, 0399ms total)
T4C98 000:627 JLINK_WriteReg(R2, 0x000000FF)  returns 0x00 (0000ms, 0399ms total)
T4C98 000:627 JLINK_WriteReg(R3, 0x00000000)  returns 0x00 (0000ms, 0399ms total)
T4C98 000:627 JLINK_WriteReg(R4, 0x00000000)  returns 0x00 (0000ms, 0399ms total)
T4C98 000:627 JLINK_WriteReg(R5, 0x00000000)  returns 0x00 (0000ms, 0399ms total)
T4C98 000:627 JLINK_WriteReg(R6, 0x00000000)  returns 0x00 (0000ms, 0399ms total)
T4C98 000:627 JLINK_WriteReg(R7, 0x00000000)  returns 0x00 (0000ms, 0399ms total)
T4C98 000:627 JLINK_WriteReg(R8, 0x00000000)  returns 0x00 (0000ms, 0399ms total)
T4C98 000:627 JLINK_WriteReg(R9, 0x20000210)  returns 0x00 (0000ms, 0399ms total)
T4C98 000:627 JLINK_WriteReg(R10, 0x00000000)  returns 0x00 (0000ms, 0399ms total)
T4C98 000:627 JLINK_WriteReg(R11, 0x00000000)  returns 0x00 (0000ms, 0399ms total)
T4C98 000:627 JLINK_WriteReg(R12, 0x00000000)  returns 0x00 (0000ms, 0399ms total)
T4C98 000:627 JLINK_WriteReg(R13 (SP), 0x20001000)  returns 0x00 (0000ms, 0399ms total)
T4C98 000:627 JLINK_WriteReg(R14, 0x20000001)  returns 0x00 (0000ms, 0399ms total)
T4C98 000:627 JLINK_WriteReg(R15 (PC), 0x20000108)  returns 0x00 (0000ms, 0399ms total)
T4C98 000:627 JLINK_WriteReg(XPSR, 0x01000000)  returns 0x00 (0000ms, 0399ms total)
T4C98 000:627 JLINK_WriteReg(MSP, 0x20001000)  returns 0x00 (0000ms, 0399ms total)
T4C98 000:627 JLINK_WriteReg(PSP, 0x20001000)  returns 0x00 (0000ms, 0399ms total)
T4C98 000:627 JLINK_WriteReg(CFBP, 0x00000000)  returns 0x00 (0000ms, 0399ms total)
T4C98 000:627 JLINK_SetBPEx(Addr = 0x20000000, Type = 0xFFFFFFF2)  returns 0x00000007 (0000ms, 0399ms total)
T4C98 000:627 JLINK_Go() -- CPU_ReadMem(4 bytes @ 0xE0001000) -- CPU_WriteMem(4 bytes @ 0xE0001000) (0003ms, 0402ms total)
T4C98 000:630 JLINK_IsHalted()  returns FALSE (0001ms, 0403ms total)
T4C98 000:635 JLINK_IsHalted() -- CPU_ReadMem(2 bytes @ 0x20000000)  returns TRUE (0004ms, 0406ms total)
T4C98 000:639 JLINK_ReadReg(R15 (PC))  returns 0x20000000 (0000ms, 0402ms total)
T4C98 000:639 JLINK_ClrBPEx(BPHandle = 0x00000007)  returns 0x00 (0000ms, 0402ms total)
T4C98 000:639 JLINK_ReadReg(R0)  returns 0x00000000 (0000ms, 0402ms total)
T4C98 000:640 JLINK_WriteReg(R0, 0x00004600)  returns 0x00 (0000ms, 0402ms total)
T4C98 000:640 JLINK_WriteReg(R1, 0x00000200)  returns 0x00 (0000ms, 0402ms total)
T4C98 000:640 JLINK_WriteReg(R2, 0x000000FF)  returns 0x00 (0000ms, 0402ms total)
T4C98 000:640 JLINK_WriteReg(R3, 0x00000000)  returns 0x00 (0000ms, 0402ms total)
T4C98 000:640 JLINK_WriteReg(R4, 0x00000000)  returns 0x00 (0000ms, 0402ms total)
T4C98 000:640 JLINK_WriteReg(R5, 0x00000000)  returns 0x00 (0000ms, 0402ms total)
T4C98 000:640 JLINK_WriteReg(R6, 0x00000000)  returns 0x00 (0000ms, 0402ms total)
T4C98 000:640 JLINK_WriteReg(R7, 0x00000000)  returns 0x00 (0000ms, 0402ms total)
T4C98 000:640 JLINK_WriteReg(R8, 0x00000000)  returns 0x00 (0000ms, 0402ms total)
T4C98 000:640 JLINK_WriteReg(R9, 0x20000210)  returns 0x00 (0000ms, 0402ms total)
T4C98 000:640 JLINK_WriteReg(R10, 0x00000000)  returns 0x00 (0000ms, 0402ms total)
T4C98 000:640 JLINK_WriteReg(R11, 0x00000000)  returns 0x00 (0000ms, 0402ms total)
T4C98 000:640 JLINK_WriteReg(R12, 0x00000000)  returns 0x00 (0000ms, 0402ms total)
T4C98 000:640 JLINK_WriteReg(R13 (SP), 0x20001000)  returns 0x00 (0000ms, 0402ms total)
T4C98 000:640 JLINK_WriteReg(R14, 0x20000001)  returns 0x00 (0000ms, 0402ms total)
T4C98 000:640 JLINK_WriteReg(R15 (PC), 0x20000020)  returns 0x00 (0000ms, 0402ms total)
T4C98 000:640 JLINK_WriteReg(XPSR, 0x01000000)  returns 0x00 (0000ms, 0402ms total)
T4C98 000:640 JLINK_WriteReg(MSP, 0x20001000)  returns 0x00 (0000ms, 0402ms total)
T4C98 000:640 JLINK_WriteReg(PSP, 0x20001000)  returns 0x00 (0000ms, 0402ms total)
T4C98 000:640 JLINK_WriteReg(CFBP, 0x00000000)  returns 0x00 (0000ms, 0402ms total)
T4C98 000:640 JLINK_SetBPEx(Addr = 0x20000000, Type = 0xFFFFFFF2)  returns 0x00000008 (0000ms, 0402ms total)
T4C98 000:640 JLINK_Go() -- CPU_ReadMem(4 bytes @ 0xE0001000) -- CPU_WriteMem(4 bytes @ 0xE0001000) (0003ms, 0405ms total)
T4C98 000:643 JLINK_IsHalted() -- CPU_ReadMem(2 bytes @ 0x20000000)  returns TRUE (0005ms, 0410ms total)
T4C98 000:648 JLINK_ReadReg(R15 (PC))  returns 0x20000000 (0000ms, 0405ms total)
T4C98 000:648 JLINK_ClrBPEx(BPHandle = 0x00000008)  returns 0x00 (0000ms, 0405ms total)
T4C98 000:648 JLINK_ReadReg(R0)  returns 0x00000001 (0000ms, 0405ms total)
T4C98 000:648 JLINK_WriteReg(R0, 0x00004600)  returns 0x00 (0000ms, 0405ms total)
T4C98 000:648 JLINK_WriteReg(R1, 0x00000200)  returns 0x00 (0000ms, 0405ms total)
T4C98 000:648 JLINK_WriteReg(R2, 0x000000FF)  returns 0x00 (0000ms, 0405ms total)
T4C98 000:648 JLINK_WriteReg(R3, 0x00000000)  returns 0x00 (0000ms, 0405ms total)
T4C98 000:648 JLINK_WriteReg(R4, 0x00000000)  returns 0x00 (0000ms, 0405ms total)
T4C98 000:648 JLINK_WriteReg(R5, 0x00000000)  returns 0x00 (0000ms, 0405ms total)
T4C98 000:648 JLINK_WriteReg(R6, 0x00000000)  returns 0x00 (0000ms, 0405ms total)
T4C98 000:648 JLINK_WriteReg(R7, 0x00000000)  returns 0x00 (0000ms, 0405ms total)
T4C98 000:648 JLINK_WriteReg(R8, 0x00000000)  returns 0x00 (0000ms, 0405ms total)
T4C98 000:648 JLINK_WriteReg(R9, 0x20000210)  returns 0x00 (0000ms, 0405ms total)
T4C98 000:648 JLINK_WriteReg(R10, 0x00000000)  returns 0x00 (0000ms, 0405ms total)
T4C98 000:648 JLINK_WriteReg(R11, 0x00000000)  returns 0x00 (0000ms, 0405ms total)
T4C98 000:648 JLINK_WriteReg(R12, 0x00000000)  returns 0x00 (0000ms, 0405ms total)
T4C98 000:648 JLINK_WriteReg(R13 (SP), 0x20001000)  returns 0x00 (0000ms, 0405ms total)
T4C98 000:648 JLINK_WriteReg(R14, 0x20000001)  returns 0x00 (0000ms, 0405ms total)
T4C98 000:648 JLINK_WriteReg(R15 (PC), 0x20000108)  returns 0x00 (0000ms, 0405ms total)
T4C98 000:648 JLINK_WriteReg(XPSR, 0x01000000)  returns 0x00 (0000ms, 0405ms total)
T4C98 000:648 JLINK_WriteReg(MSP, 0x20001000)  returns 0x00 (0000ms, 0405ms total)
T4C98 000:648 JLINK_WriteReg(PSP, 0x20001000)  returns 0x00 (0000ms, 0405ms total)
T4C98 000:648 JLINK_WriteReg(CFBP, 0x00000000)  returns 0x00 (0000ms, 0405ms total)
T4C98 000:648 JLINK_SetBPEx(Addr = 0x20000000, Type = 0xFFFFFFF2)  returns 0x00000009 (0000ms, 0405ms total)
T4C98 000:648 JLINK_Go() -- CPU_ReadMem(4 bytes @ 0xE0001000) -- CPU_WriteMem(4 bytes @ 0xE0001000) (0003ms, 0408ms total)
T4C98 000:651 JLINK_IsHalted()  returns FALSE (0000ms, 0408ms total)
T4C98 000:655 JLINK_IsHalted() -- CPU_ReadMem(2 bytes @ 0x20000000)  returns TRUE (0005ms, 0413ms total)
T4C98 000:660 JLINK_ReadReg(R15 (PC))  returns 0x20000000 (0000ms, 0408ms total)
T4C98 000:660 JLINK_ClrBPEx(BPHandle = 0x00000009)  returns 0x00 (0000ms, 0408ms total)
T4C98 000:660 JLINK_ReadReg(R0)  returns 0x00000000 (0000ms, 0408ms total)
T4C98 000:661 JLINK_WriteReg(R0, 0x00004800)  returns 0x00 (0000ms, 0408ms total)
T4C98 000:661 JLINK_WriteReg(R1, 0x00000200)  returns 0x00 (0000ms, 0408ms total)
T4C98 000:661 JLINK_WriteReg(R2, 0x000000FF)  returns 0x00 (0000ms, 0408ms total)
T4C98 000:661 JLINK_WriteReg(R3, 0x00000000)  returns 0x00 (0000ms, 0408ms total)
T4C98 000:661 JLINK_WriteReg(R4, 0x00000000)  returns 0x00 (0000ms, 0408ms total)
T4C98 000:661 JLINK_WriteReg(R5, 0x00000000)  returns 0x00 (0000ms, 0408ms total)
T4C98 000:661 JLINK_WriteReg(R6, 0x00000000)  returns 0x00 (0000ms, 0408ms total)
T4C98 000:661 JLINK_WriteReg(R7, 0x00000000)  returns 0x00 (0000ms, 0408ms total)
T4C98 000:661 JLINK_WriteReg(R8, 0x00000000)  returns 0x00 (0000ms, 0408ms total)
T4C98 000:661 JLINK_WriteReg(R9, 0x20000210)  returns 0x00 (0000ms, 0408ms total)
T4C98 000:661 JLINK_WriteReg(R10, 0x00000000)  returns 0x00 (0000ms, 0408ms total)
T4C98 000:661 JLINK_WriteReg(R11, 0x00000000)  returns 0x00 (0000ms, 0408ms total)
T4C98 000:661 JLINK_WriteReg(R12, 0x00000000)  returns 0x00 (0000ms, 0408ms total)
T4C98 000:661 JLINK_WriteReg(R13 (SP), 0x20001000)  returns 0x00 (0000ms, 0408ms total)
T4C98 000:661 JLINK_WriteReg(R14, 0x20000001)  returns 0x00 (0000ms, 0408ms total)
T4C98 000:661 JLINK_WriteReg(R15 (PC), 0x20000020)  returns 0x00 (0000ms, 0408ms total)
T4C98 000:661 JLINK_WriteReg(XPSR, 0x01000000)  returns 0x00 (0000ms, 0408ms total)
T4C98 000:661 JLINK_WriteReg(MSP, 0x20001000)  returns 0x00 (0000ms, 0408ms total)
T4C98 000:661 JLINK_WriteReg(PSP, 0x20001000)  returns 0x00 (0000ms, 0408ms total)
T4C98 000:661 JLINK_WriteReg(CFBP, 0x00000000)  returns 0x00 (0000ms, 0408ms total)
T4C98 000:661 JLINK_SetBPEx(Addr = 0x20000000, Type = 0xFFFFFFF2)  returns 0x0000000A (0000ms, 0408ms total)
T4C98 000:661 JLINK_Go() -- CPU_ReadMem(4 bytes @ 0xE0001000) -- CPU_WriteMem(4 bytes @ 0xE0001000) (0003ms, 0411ms total)
T4C98 000:664 JLINK_IsHalted() -- CPU_ReadMem(2 bytes @ 0x20000000)  returns TRUE (0004ms, 0415ms total)
T4C98 000:668 JLINK_ReadReg(R15 (PC))  returns 0x20000000 (0000ms, 0411ms total)
T4C98 000:668 JLINK_ClrBPEx(BPHandle = 0x0000000A)  returns 0x00 (0001ms, 0412ms total)
T4C98 000:669 JLINK_ReadReg(R0)  returns 0x00000001 (0000ms, 0412ms total)
T4C98 000:669 JLINK_WriteReg(R0, 0x00004800)  returns 0x00 (0000ms, 0412ms total)
T4C98 000:669 JLINK_WriteReg(R1, 0x00000200)  returns 0x00 (0000ms, 0412ms total)
T4C98 000:669 JLINK_WriteReg(R2, 0x000000FF)  returns 0x00 (0000ms, 0412ms total)
T4C98 000:669 JLINK_WriteReg(R3, 0x00000000)  returns 0x00 (0000ms, 0412ms total)
T4C98 000:669 JLINK_WriteReg(R4, 0x00000000)  returns 0x00 (0000ms, 0412ms total)
T4C98 000:669 JLINK_WriteReg(R5, 0x00000000)  returns 0x00 (0000ms, 0412ms total)
T4C98 000:669 JLINK_WriteReg(R6, 0x00000000)  returns 0x00 (0000ms, 0412ms total)
T4C98 000:669 JLINK_WriteReg(R7, 0x00000000)  returns 0x00 (0000ms, 0412ms total)
T4C98 000:669 JLINK_WriteReg(R8, 0x00000000)  returns 0x00 (0000ms, 0412ms total)
T4C98 000:669 JLINK_WriteReg(R9, 0x20000210)  returns 0x00 (0000ms, 0412ms total)
T4C98 000:669 JLINK_WriteReg(R10, 0x00000000)  returns 0x00 (0000ms, 0412ms total)
T4C98 000:669 JLINK_WriteReg(R11, 0x00000000)  returns 0x00 (0000ms, 0412ms total)
T4C98 000:669 JLINK_WriteReg(R12, 0x00000000)  returns 0x00 (0000ms, 0412ms total)
T4C98 000:669 JLINK_WriteReg(R13 (SP), 0x20001000)  returns 0x00 (0000ms, 0412ms total)
T4C98 000:669 JLINK_WriteReg(R14, 0x20000001)  returns 0x00 (0000ms, 0412ms total)
T4C98 000:669 JLINK_WriteReg(R15 (PC), 0x20000108)  returns 0x00 (0000ms, 0412ms total)
T4C98 000:669 JLINK_WriteReg(XPSR, 0x01000000)  returns 0x00 (0000ms, 0412ms total)
T4C98 000:669 JLINK_WriteReg(MSP, 0x20001000)  returns 0x00 (0000ms, 0412ms total)
T4C98 000:669 JLINK_WriteReg(PSP, 0x20001000)  returns 0x00 (0000ms, 0412ms total)
T4C98 000:669 JLINK_WriteReg(CFBP, 0x00000000)  returns 0x00 (0000ms, 0412ms total)
T4C98 000:669 JLINK_SetBPEx(Addr = 0x20000000, Type = 0xFFFFFFF2)  returns 0x0000000B (0000ms, 0412ms total)
T4C98 000:669 JLINK_Go() -- CPU_ReadMem(4 bytes @ 0xE0001000) -- CPU_WriteMem(4 bytes @ 0xE0001000) (0002ms, 0414ms total)
T4C98 000:671 JLINK_IsHalted()  returns FALSE (0001ms, 0415ms total)
T4C98 000:674 JLINK_IsHalted() -- CPU_ReadMem(2 bytes @ 0x20000000)  returns TRUE (0004ms, 0418ms total)
T4C98 000:678 JLINK_ReadReg(R15 (PC))  returns 0x20000000 (0000ms, 0414ms total)
T4C98 000:678 JLINK_ClrBPEx(BPHandle = 0x0000000B)  returns 0x00 (0000ms, 0414ms total)
T4C98 000:678 JLINK_ReadReg(R0)  returns 0x00000000 (0000ms, 0414ms total)
T4C98 000:678 JLINK_WriteReg(R0, 0x00004A00)  returns 0x00 (0000ms, 0414ms total)
T4C98 000:678 JLINK_WriteReg(R1, 0x00000200)  returns 0x00 (0000ms, 0414ms total)
T4C98 000:678 JLINK_WriteReg(R2, 0x000000FF)  returns 0x00 (0000ms, 0414ms total)
T4C98 000:678 JLINK_WriteReg(R3, 0x00000000)  returns 0x00 (0000ms, 0414ms total)
T4C98 000:678 JLINK_WriteReg(R4, 0x00000000)  returns 0x00 (0000ms, 0414ms total)
T4C98 000:678 JLINK_WriteReg(R5, 0x00000000)  returns 0x00 (0000ms, 0414ms total)
T4C98 000:678 JLINK_WriteReg(R6, 0x00000000)  returns 0x00 (0000ms, 0414ms total)
T4C98 000:678 JLINK_WriteReg(R7, 0x00000000)  returns 0x00 (0000ms, 0414ms total)
T4C98 000:678 JLINK_WriteReg(R8, 0x00000000)  returns 0x00 (0001ms, 0415ms total)
T4C98 000:679 JLINK_WriteReg(R9, 0x20000210)  returns 0x00 (0000ms, 0415ms total)
T4C98 000:679 JLINK_WriteReg(R10, 0x00000000)  returns 0x00 (0000ms, 0415ms total)
T4C98 000:679 JLINK_WriteReg(R11, 0x00000000)  returns 0x00 (0000ms, 0415ms total)
T4C98 000:679 JLINK_WriteReg(R12, 0x00000000)  returns 0x00 (0000ms, 0415ms total)
T4C98 000:679 JLINK_WriteReg(R13 (SP), 0x20001000)  returns 0x00 (0000ms, 0415ms total)
T4C98 000:679 JLINK_WriteReg(R14, 0x20000001)  returns 0x00 (0000ms, 0415ms total)
T4C98 000:679 JLINK_WriteReg(R15 (PC), 0x20000020)  returns 0x00 (0000ms, 0415ms total)
T4C98 000:679 JLINK_WriteReg(XPSR, 0x01000000)  returns 0x00 (0000ms, 0415ms total)
T4C98 000:679 JLINK_WriteReg(MSP, 0x20001000)  returns 0x00 (0000ms, 0415ms total)
T4C98 000:679 JLINK_WriteReg(PSP, 0x20001000)  returns 0x00 (0000ms, 0415ms total)
T4C98 000:679 JLINK_WriteReg(CFBP, 0x00000000)  returns 0x00 (0000ms, 0415ms total)
T4C98 000:679 JLINK_SetBPEx(Addr = 0x20000000, Type = 0xFFFFFFF2)  returns 0x0000000C (0000ms, 0415ms total)
T4C98 000:679 JLINK_Go() -- CPU_ReadMem(4 bytes @ 0xE0001000) -- CPU_WriteMem(4 bytes @ 0xE0001000) (0003ms, 0418ms total)
T4C98 000:682 JLINK_IsHalted() -- CPU_ReadMem(2 bytes @ 0x20000000)  returns TRUE (0004ms, 0422ms total)
T4C98 000:686 JLINK_ReadReg(R15 (PC))  returns 0x20000000 (0000ms, 0418ms total)
T4C98 000:686 JLINK_ClrBPEx(BPHandle = 0x0000000C)  returns 0x00 (0000ms, 0418ms total)
T4C98 000:686 JLINK_ReadReg(R0)  returns 0x00000001 (0000ms, 0418ms total)
T4C98 000:686 JLINK_WriteReg(R0, 0x00004A00)  returns 0x00 (0000ms, 0418ms total)
T4C98 000:686 JLINK_WriteReg(R1, 0x00000200)  returns 0x00 (0000ms, 0418ms total)
T4C98 000:686 JLINK_WriteReg(R2, 0x000000FF)  returns 0x00 (0000ms, 0418ms total)
T4C98 000:686 JLINK_WriteReg(R3, 0x00000000)  returns 0x00 (0000ms, 0418ms total)
T4C98 000:686 JLINK_WriteReg(R4, 0x00000000)  returns 0x00 (0000ms, 0418ms total)
T4C98 000:686 JLINK_WriteReg(R5, 0x00000000)  returns 0x00 (0000ms, 0418ms total)
T4C98 000:686 JLINK_WriteReg(R6, 0x00000000)  returns 0x00 (0000ms, 0418ms total)
T4C98 000:686 JLINK_WriteReg(R7, 0x00000000)  returns 0x00 (0000ms, 0418ms total)
T4C98 000:686 JLINK_WriteReg(R8, 0x00000000)  returns 0x00 (0000ms, 0418ms total)
T4C98 000:686 JLINK_WriteReg(R9, 0x20000210)  returns 0x00 (0000ms, 0418ms total)
T4C98 000:686 JLINK_WriteReg(R10, 0x00000000)  returns 0x00 (0000ms, 0418ms total)
T4C98 000:686 JLINK_WriteReg(R11, 0x00000000)  returns 0x00 (0000ms, 0418ms total)
T4C98 000:686 JLINK_WriteReg(R12, 0x00000000)  returns 0x00 (0000ms, 0418ms total)
T4C98 000:686 JLINK_WriteReg(R13 (SP), 0x20001000)  returns 0x00 (0000ms, 0418ms total)
T4C98 000:686 JLINK_WriteReg(R14, 0x20000001)  returns 0x00 (0000ms, 0418ms total)
T4C98 000:686 JLINK_WriteReg(R15 (PC), 0x20000108)  returns 0x00 (0000ms, 0418ms total)
T4C98 000:686 JLINK_WriteReg(XPSR, 0x01000000)  returns 0x00 (0000ms, 0418ms total)
T4C98 000:686 JLINK_WriteReg(MSP, 0x20001000)  returns 0x00 (0000ms, 0418ms total)
T4C98 000:686 JLINK_WriteReg(PSP, 0x20001000)  returns 0x00 (0000ms, 0418ms total)
T4C98 000:686 JLINK_WriteReg(CFBP, 0x00000000)  returns 0x00 (0000ms, 0418ms total)
T4C98 000:686 JLINK_SetBPEx(Addr = 0x20000000, Type = 0xFFFFFFF2)  returns 0x0000000D (0000ms, 0418ms total)
T4C98 000:686 JLINK_Go() -- CPU_ReadMem(4 bytes @ 0xE0001000) -- CPU_WriteMem(4 bytes @ 0xE0001000) (0003ms, 0421ms total)
T4C98 000:689 JLINK_IsHalted()  returns FALSE (0001ms, 0422ms total)
T4C98 000:694 JLINK_IsHalted() -- CPU_ReadMem(2 bytes @ 0x20000000)  returns TRUE (0004ms, 0425ms total)
T4C98 000:698 JLINK_ReadReg(R15 (PC))  returns 0x20000000 (0000ms, 0421ms total)
T4C98 000:698 JLINK_ClrBPEx(BPHandle = 0x0000000D)  returns 0x00 (0000ms, 0421ms total)
T4C98 000:698 JLINK_ReadReg(R0)  returns 0x00000000 (0000ms, 0421ms total)
T4C98 000:701 JLINK_WriteReg(R0, 0x00004C00)  returns 0x00 (0000ms, 0421ms total)
T4C98 000:701 JLINK_WriteReg(R1, 0x00000200)  returns 0x00 (0000ms, 0421ms total)
T4C98 000:701 JLINK_WriteReg(R2, 0x000000FF)  returns 0x00 (0000ms, 0421ms total)
T4C98 000:701 JLINK_WriteReg(R3, 0x00000000)  returns 0x00 (0000ms, 0421ms total)
T4C98 000:701 JLINK_WriteReg(R4, 0x00000000)  returns 0x00 (0000ms, 0421ms total)
T4C98 000:701 JLINK_WriteReg(R5, 0x00000000)  returns 0x00 (0000ms, 0421ms total)
T4C98 000:701 JLINK_WriteReg(R6, 0x00000000)  returns 0x00 (0000ms, 0421ms total)
T4C98 000:701 JLINK_WriteReg(R7, 0x00000000)  returns 0x00 (0000ms, 0421ms total)
T4C98 000:701 JLINK_WriteReg(R8, 0x00000000)  returns 0x00 (0000ms, 0421ms total)
T4C98 000:701 JLINK_WriteReg(R9, 0x20000210)  returns 0x00 (0000ms, 0421ms total)
T4C98 000:701 JLINK_WriteReg(R10, 0x00000000)  returns 0x00 (0000ms, 0421ms total)
T4C98 000:701 JLINK_WriteReg(R11, 0x00000000)  returns 0x00 (0000ms, 0421ms total)
T4C98 000:701 JLINK_WriteReg(R12, 0x00000000)  returns 0x00 (0000ms, 0421ms total)
T4C98 000:701 JLINK_WriteReg(R13 (SP), 0x20001000)  returns 0x00 (0000ms, 0421ms total)
T4C98 000:701 JLINK_WriteReg(R14, 0x20000001)  returns 0x00 (0000ms, 0421ms total)
T4C98 000:701 JLINK_WriteReg(R15 (PC), 0x20000020)  returns 0x00 (0000ms, 0421ms total)
T4C98 000:701 JLINK_WriteReg(XPSR, 0x01000000)  returns 0x00 (0000ms, 0421ms total)
T4C98 000:701 JLINK_WriteReg(MSP, 0x20001000)  returns 0x00 (0000ms, 0421ms total)
T4C98 000:701 JLINK_WriteReg(PSP, 0x20001000)  returns 0x00 (0000ms, 0421ms total)
T4C98 000:701 JLINK_WriteReg(CFBP, 0x00000000)  returns 0x00 (0000ms, 0421ms total)
T4C98 000:701 JLINK_SetBPEx(Addr = 0x20000000, Type = 0xFFFFFFF2)  returns 0x0000000E (0000ms, 0421ms total)
T4C98 000:701 JLINK_Go() -- CPU_ReadMem(4 bytes @ 0xE0001000) -- CPU_WriteMem(4 bytes @ 0xE0001000) (0003ms, 0424ms total)
T4C98 000:704 JLINK_IsHalted() -- CPU_ReadMem(2 bytes @ 0x20000000)  returns TRUE (0005ms, 0429ms total)
T4C98 000:709 JLINK_ReadReg(R15 (PC))  returns 0x20000000 (0000ms, 0424ms total)
T4C98 000:709 JLINK_ClrBPEx(BPHandle = 0x0000000E)  returns 0x00 (0000ms, 0424ms total)
T4C98 000:709 JLINK_ReadReg(R0)  returns 0x00000001 (0000ms, 0424ms total)
T4C98 000:709 JLINK_WriteReg(R0, 0x00004C00)  returns 0x00 (0000ms, 0424ms total)
T4C98 000:709 JLINK_WriteReg(R1, 0x00000200)  returns 0x00 (0000ms, 0424ms total)
T4C98 000:709 JLINK_WriteReg(R2, 0x000000FF)  returns 0x00 (0000ms, 0424ms total)
T4C98 000:709 JLINK_WriteReg(R3, 0x00000000)  returns 0x00 (0000ms, 0424ms total)
T4C98 000:709 JLINK_WriteReg(R4, 0x00000000)  returns 0x00 (0000ms, 0424ms total)
T4C98 000:709 JLINK_WriteReg(R5, 0x00000000)  returns 0x00 (0000ms, 0424ms total)
T4C98 000:709 JLINK_WriteReg(R6, 0x00000000)  returns 0x00 (0000ms, 0424ms total)
T4C98 000:709 JLINK_WriteReg(R7, 0x00000000)  returns 0x00 (0000ms, 0424ms total)
T4C98 000:709 JLINK_WriteReg(R8, 0x00000000)  returns 0x00 (0000ms, 0424ms total)
T4C98 000:709 JLINK_WriteReg(R9, 0x20000210)  returns 0x00 (0000ms, 0424ms total)
T4C98 000:709 JLINK_WriteReg(R10, 0x00000000)  returns 0x00 (0000ms, 0424ms total)
T4C98 000:709 JLINK_WriteReg(R11, 0x00000000)  returns 0x00 (0000ms, 0424ms total)
T4C98 000:709 JLINK_WriteReg(R12, 0x00000000)  returns 0x00 (0000ms, 0424ms total)
T4C98 000:709 JLINK_WriteReg(R13 (SP), 0x20001000)  returns 0x00 (0000ms, 0424ms total)
T4C98 000:709 JLINK_WriteReg(R14, 0x20000001)  returns 0x00 (0000ms, 0424ms total)
T4C98 000:709 JLINK_WriteReg(R15 (PC), 0x20000108)  returns 0x00 (0000ms, 0424ms total)
T4C98 000:709 JLINK_WriteReg(XPSR, 0x01000000)  returns 0x00 (0000ms, 0424ms total)
T4C98 000:709 JLINK_WriteReg(MSP, 0x20001000)  returns 0x00 (0000ms, 0424ms total)
T4C98 000:709 JLINK_WriteReg(PSP, 0x20001000)  returns 0x00 (0000ms, 0424ms total)
T4C98 000:709 JLINK_WriteReg(CFBP, 0x00000000)  returns 0x00 (0000ms, 0424ms total)
T4C98 000:709 JLINK_SetBPEx(Addr = 0x20000000, Type = 0xFFFFFFF2)  returns 0x0000000F (0000ms, 0424ms total)
T4C98 000:709 JLINK_Go() -- CPU_ReadMem(4 bytes @ 0xE0001000) -- CPU_WriteMem(4 bytes @ 0xE0001000) (0003ms, 0427ms total)
T4C98 000:712 JLINK_IsHalted()  returns FALSE (0001ms, 0428ms total)
T4C98 000:715 JLINK_IsHalted() -- CPU_ReadMem(2 bytes @ 0x20000000)  returns TRUE (0004ms, 0431ms total)
T4C98 000:719 JLINK_ReadReg(R15 (PC))  returns 0x20000000 (0000ms, 0427ms total)
T4C98 000:719 JLINK_ClrBPEx(BPHandle = 0x0000000F)  returns 0x00 (0000ms, 0427ms total)
T4C98 000:719 JLINK_ReadReg(R0)  returns 0x00000000 (0000ms, 0427ms total)
T4C98 000:720 JLINK_WriteReg(R0, 0x00004E00)  returns 0x00 (0000ms, 0427ms total)
T4C98 000:720 JLINK_WriteReg(R1, 0x00000200)  returns 0x00 (0000ms, 0427ms total)
T4C98 000:720 JLINK_WriteReg(R2, 0x000000FF)  returns 0x00 (0000ms, 0427ms total)
T4C98 000:720 JLINK_WriteReg(R3, 0x00000000)  returns 0x00 (0000ms, 0427ms total)
T4C98 000:720 JLINK_WriteReg(R4, 0x00000000)  returns 0x00 (0000ms, 0427ms total)
T4C98 000:720 JLINK_WriteReg(R5, 0x00000000)  returns 0x00 (0000ms, 0427ms total)
T4C98 000:720 JLINK_WriteReg(R6, 0x00000000)  returns 0x00 (0000ms, 0427ms total)
T4C98 000:720 JLINK_WriteReg(R7, 0x00000000)  returns 0x00 (0000ms, 0427ms total)
T4C98 000:720 JLINK_WriteReg(R8, 0x00000000)  returns 0x00 (0000ms, 0427ms total)
T4C98 000:720 JLINK_WriteReg(R9, 0x20000210)  returns 0x00 (0000ms, 0427ms total)
T4C98 000:720 JLINK_WriteReg(R10, 0x00000000)  returns 0x00 (0000ms, 0427ms total)
T4C98 000:720 JLINK_WriteReg(R11, 0x00000000)  returns 0x00 (0000ms, 0427ms total)
T4C98 000:720 JLINK_WriteReg(R12, 0x00000000)  returns 0x00 (0000ms, 0427ms total)
T4C98 000:720 JLINK_WriteReg(R13 (SP), 0x20001000)  returns 0x00 (0000ms, 0427ms total)
T4C98 000:720 JLINK_WriteReg(R14, 0x20000001)  returns 0x00 (0000ms, 0427ms total)
T4C98 000:720 JLINK_WriteReg(R15 (PC), 0x20000020)  returns 0x00 (0000ms, 0427ms total)
T4C98 000:720 JLINK_WriteReg(XPSR, 0x01000000)  returns 0x00 (0000ms, 0427ms total)
T4C98 000:720 JLINK_WriteReg(MSP, 0x20001000)  returns 0x00 (0000ms, 0427ms total)
T4C98 000:720 JLINK_WriteReg(PSP, 0x20001000)  returns 0x00 (0000ms, 0427ms total)
T4C98 000:720 JLINK_WriteReg(CFBP, 0x00000000)  returns 0x00 (0000ms, 0427ms total)
T4C98 000:720 JLINK_SetBPEx(Addr = 0x20000000, Type = 0xFFFFFFF2)  returns 0x00000010 (0000ms, 0427ms total)
T4C98 000:720 JLINK_Go() -- CPU_ReadMem(4 bytes @ 0xE0001000) -- CPU_WriteMem(4 bytes @ 0xE0001000) (0004ms, 0431ms total)
T4C98 000:724 JLINK_IsHalted() -- CPU_ReadMem(2 bytes @ 0x20000000)  returns TRUE (0005ms, 0436ms total)
T4C98 000:729 JLINK_ReadReg(R15 (PC))  returns 0x20000000 (0000ms, 0431ms total)
T4C98 000:729 JLINK_ClrBPEx(BPHandle = 0x00000010)  returns 0x00 (0000ms, 0431ms total)
T4C98 000:729 JLINK_ReadReg(R0)  returns 0x00000001 (0000ms, 0431ms total)
T4C98 000:729 JLINK_WriteReg(R0, 0x00004E00)  returns 0x00 (0000ms, 0431ms total)
T4C98 000:729 JLINK_WriteReg(R1, 0x00000200)  returns 0x00 (0000ms, 0431ms total)
T4C98 000:729 JLINK_WriteReg(R2, 0x000000FF)  returns 0x00 (0000ms, 0431ms total)
T4C98 000:729 JLINK_WriteReg(R3, 0x00000000)  returns 0x00 (0000ms, 0431ms total)
T4C98 000:729 JLINK_WriteReg(R4, 0x00000000)  returns 0x00 (0000ms, 0431ms total)
T4C98 000:729 JLINK_WriteReg(R5, 0x00000000)  returns 0x00 (0000ms, 0431ms total)
T4C98 000:729 JLINK_WriteReg(R6, 0x00000000)  returns 0x00 (0000ms, 0431ms total)
T4C98 000:729 JLINK_WriteReg(R7, 0x00000000)  returns 0x00 (0000ms, 0431ms total)
T4C98 000:729 JLINK_WriteReg(R8, 0x00000000)  returns 0x00 (0000ms, 0431ms total)
T4C98 000:729 JLINK_WriteReg(R9, 0x20000210)  returns 0x00 (0000ms, 0431ms total)
T4C98 000:729 JLINK_WriteReg(R10, 0x00000000)  returns 0x00 (0000ms, 0431ms total)
T4C98 000:729 JLINK_WriteReg(R11, 0x00000000)  returns 0x00 (0000ms, 0431ms total)
T4C98 000:729 JLINK_WriteReg(R12, 0x00000000)  returns 0x00 (0000ms, 0431ms total)
T4C98 000:729 JLINK_WriteReg(R13 (SP), 0x20001000)  returns 0x00 (0000ms, 0431ms total)
T4C98 000:729 JLINK_WriteReg(R14, 0x20000001)  returns 0x00 (0000ms, 0431ms total)
T4C98 000:729 JLINK_WriteReg(R15 (PC), 0x20000108)  returns 0x00 (0000ms, 0431ms total)
T4C98 000:729 JLINK_WriteReg(XPSR, 0x01000000)  returns 0x00 (0000ms, 0431ms total)
T4C98 000:729 JLINK_WriteReg(MSP, 0x20001000)  returns 0x00 (0000ms, 0431ms total)
T4C98 000:729 JLINK_WriteReg(PSP, 0x20001000)  returns 0x00 (0000ms, 0431ms total)
T4C98 000:729 JLINK_WriteReg(CFBP, 0x00000000)  returns 0x00 (0000ms, 0431ms total)
T4C98 000:729 JLINK_SetBPEx(Addr = 0x20000000, Type = 0xFFFFFFF2)  returns 0x00000011 (0000ms, 0431ms total)
T4C98 000:729 JLINK_Go() -- CPU_ReadMem(4 bytes @ 0xE0001000) -- CPU_WriteMem(4 bytes @ 0xE0001000) (0003ms, 0434ms total)
T4C98 000:732 JLINK_IsHalted()  returns FALSE (0001ms, 0435ms total)
T4C98 000:736 JLINK_IsHalted() -- CPU_ReadMem(2 bytes @ 0x20000000)  returns TRUE (0004ms, 0438ms total)
T4C98 000:740 JLINK_ReadReg(R15 (PC))  returns 0x20000000 (0000ms, 0434ms total)
T4C98 000:740 JLINK_ClrBPEx(BPHandle = 0x00000011)  returns 0x00 (0000ms, 0434ms total)
T4C98 000:740 JLINK_ReadReg(R0)  returns 0x00000000 (0000ms, 0434ms total)
T4C98 000:741 JLINK_WriteReg(R0, 0x00005000)  returns 0x00 (0000ms, 0434ms total)
T4C98 000:741 JLINK_WriteReg(R1, 0x00000200)  returns 0x00 (0000ms, 0434ms total)
T4C98 000:741 JLINK_WriteReg(R2, 0x000000FF)  returns 0x00 (0000ms, 0434ms total)
T4C98 000:741 JLINK_WriteReg(R3, 0x00000000)  returns 0x00 (0000ms, 0434ms total)
T4C98 000:741 JLINK_WriteReg(R4, 0x00000000)  returns 0x00 (0000ms, 0434ms total)
T4C98 000:741 JLINK_WriteReg(R5, 0x00000000)  returns 0x00 (0000ms, 0434ms total)
T4C98 000:741 JLINK_WriteReg(R6, 0x00000000)  returns 0x00 (0000ms, 0434ms total)
T4C98 000:741 JLINK_WriteReg(R7, 0x00000000)  returns 0x00 (0000ms, 0434ms total)
T4C98 000:741 JLINK_WriteReg(R8, 0x00000000)  returns 0x00 (0000ms, 0434ms total)
T4C98 000:741 JLINK_WriteReg(R9, 0x20000210)  returns 0x00 (0000ms, 0434ms total)
T4C98 000:741 JLINK_WriteReg(R10, 0x00000000)  returns 0x00 (0000ms, 0434ms total)
T4C98 000:741 JLINK_WriteReg(R11, 0x00000000)  returns 0x00 (0000ms, 0434ms total)
T4C98 000:741 JLINK_WriteReg(R12, 0x00000000)  returns 0x00 (0000ms, 0434ms total)
T4C98 000:741 JLINK_WriteReg(R13 (SP), 0x20001000)  returns 0x00 (0000ms, 0434ms total)
T4C98 000:741 JLINK_WriteReg(R14, 0x20000001)  returns 0x00 (0000ms, 0434ms total)
T4C98 000:741 JLINK_WriteReg(R15 (PC), 0x20000020)  returns 0x00 (0000ms, 0434ms total)
T4C98 000:741 JLINK_WriteReg(XPSR, 0x01000000)  returns 0x00 (0000ms, 0434ms total)
T4C98 000:741 JLINK_WriteReg(MSP, 0x20001000)  returns 0x00 (0000ms, 0434ms total)
T4C98 000:741 JLINK_WriteReg(PSP, 0x20001000)  returns 0x00 (0000ms, 0434ms total)
T4C98 000:741 JLINK_WriteReg(CFBP, 0x00000000)  returns 0x00 (0000ms, 0434ms total)
T4C98 000:741 JLINK_SetBPEx(Addr = 0x20000000, Type = 0xFFFFFFF2)  returns 0x00000012 (0000ms, 0434ms total)
T4C98 000:741 JLINK_Go() -- CPU_ReadMem(4 bytes @ 0xE0001000) -- CPU_WriteMem(4 bytes @ 0xE0001000) (0004ms, 0438ms total)
T4C98 000:745 JLINK_IsHalted() -- CPU_ReadMem(2 bytes @ 0x20000000)  returns TRUE (0004ms, 0442ms total)
T4C98 000:749 JLINK_ReadReg(R15 (PC))  returns 0x20000000 (0000ms, 0438ms total)
T4C98 000:749 JLINK_ClrBPEx(BPHandle = 0x00000012)  returns 0x00 (0000ms, 0438ms total)
T4C98 000:749 JLINK_ReadReg(R0)  returns 0x00000001 (0000ms, 0438ms total)
T4C98 000:749 JLINK_WriteReg(R0, 0x00005000)  returns 0x00 (0000ms, 0438ms total)
T4C98 000:749 JLINK_WriteReg(R1, 0x00000200)  returns 0x00 (0000ms, 0438ms total)
T4C98 000:749 JLINK_WriteReg(R2, 0x000000FF)  returns 0x00 (0000ms, 0438ms total)
T4C98 000:749 JLINK_WriteReg(R3, 0x00000000)  returns 0x00 (0000ms, 0438ms total)
T4C98 000:749 JLINK_WriteReg(R4, 0x00000000)  returns 0x00 (0000ms, 0438ms total)
T4C98 000:749 JLINK_WriteReg(R5, 0x00000000)  returns 0x00 (0000ms, 0438ms total)
T4C98 000:749 JLINK_WriteReg(R6, 0x00000000)  returns 0x00 (0000ms, 0438ms total)
T4C98 000:749 JLINK_WriteReg(R7, 0x00000000)  returns 0x00 (0000ms, 0438ms total)
T4C98 000:749 JLINK_WriteReg(R8, 0x00000000)  returns 0x00 (0000ms, 0438ms total)
T4C98 000:749 JLINK_WriteReg(R9, 0x20000210)  returns 0x00 (0000ms, 0438ms total)
T4C98 000:749 JLINK_WriteReg(R10, 0x00000000)  returns 0x00 (0000ms, 0438ms total)
T4C98 000:749 JLINK_WriteReg(R11, 0x00000000)  returns 0x00 (0000ms, 0438ms total)
T4C98 000:749 JLINK_WriteReg(R12, 0x00000000)  returns 0x00 (0000ms, 0438ms total)
T4C98 000:749 JLINK_WriteReg(R13 (SP), 0x20001000)  returns 0x00 (0000ms, 0438ms total)
T4C98 000:749 JLINK_WriteReg(R14, 0x20000001)  returns 0x00 (0000ms, 0438ms total)
T4C98 000:749 JLINK_WriteReg(R15 (PC), 0x20000108)  returns 0x00 (0000ms, 0438ms total)
T4C98 000:749 JLINK_WriteReg(XPSR, 0x01000000)  returns 0x00 (0000ms, 0438ms total)
T4C98 000:749 JLINK_WriteReg(MSP, 0x20001000)  returns 0x00 (0000ms, 0438ms total)
T4C98 000:749 JLINK_WriteReg(PSP, 0x20001000)  returns 0x00 (0000ms, 0438ms total)
T4C98 000:749 JLINK_WriteReg(CFBP, 0x00000000)  returns 0x00 (0000ms, 0438ms total)
T4C98 000:749 JLINK_SetBPEx(Addr = 0x20000000, Type = 0xFFFFFFF2)  returns 0x00000013 (0000ms, 0438ms total)
T4C98 000:749 JLINK_Go() -- CPU_ReadMem(4 bytes @ 0xE0001000) -- CPU_WriteMem(4 bytes @ 0xE0001000) (0005ms, 0443ms total)
T4C98 000:754 JLINK_IsHalted()  returns FALSE (0001ms, 0444ms total)
T4C98 000:757 JLINK_IsHalted() -- CPU_ReadMem(2 bytes @ 0x20000000)  returns TRUE (0004ms, 0447ms total)
T4C98 000:761 JLINK_ReadReg(R15 (PC))  returns 0x20000000 (0000ms, 0443ms total)
T4C98 000:761 JLINK_ClrBPEx(BPHandle = 0x00000013)  returns 0x00 (0000ms, 0443ms total)
T4C98 000:761 JLINK_ReadReg(R0)  returns 0x00000000 (0000ms, 0443ms total)
